Circuit: * C:\users\user\My Documents\LTspiceXVII\Draft3.asc

Direct Newton iteration for .op point succeeded.
Semiconductor Device Operating Points:
                        --- Bipolar Transistors ---
Name:       q2          q1
Model:    2n2222      2n2222
Ib:       4.35e-06    4.70e-06
Ic:       9.52e-04    1.03e-03
Vbe:      6.52e-01    6.54e-01
Vbc:     -9.79e+00   -9.77e+00
Vce:      1.04e+01    1.04e+01
BetaDC:   2.19e+02    2.19e+02
Gm:       3.67e-02    3.96e-02
Rpi:      5.95e+03    5.51e+03
Rx:       1.00e+01    1.00e+01
Ro:       1.15e+05    1.07e+05
Cbe:      5.38e-11    5.50e-11
Cbc:      3.34e-12    3.35e-12
Cjs:      0.00e+00    0.00e+00
BetaAC:   2.18e+02    2.18e+02
Cbx:      0.00e+00    0.00e+00
Ft:       1.02e+08    1.08e+08



Date: Mon Dec 17 20:56:11 2018
Total elapsed time: 1.570 seconds.

tnom = 27
temp = 27
method = trap
totiter = 368
traniter = 0
tranpoints = 0
accept = 0
rejected = 0
matrix size = 21
fillins = 0
solver = Normal
Matrix Compiler1: 966 bytes object code size
Matrix Compiler2: off  [0.8]/0.8/1.0

